
T48A0 000:573 SEGGER J-Link V4.90 Log File (0000ms, 0266ms total)
T48A0 000:573 DLL Compiled: Jul 28 2014 10:35:20 (0000ms, 0266ms total)
T48A0 000:573 Logging started @ 2018-05-24 19:21 (0000ms, 0266ms total)
T48A0 000:573 JLINK_SetWarnOutHandler(...) (0000ms, 0266ms total)
T48A0 000:573 JLINK_OpenEx(...)
Firmware: J-Link OB-STM32F072-CortexM compiled Mar  8 2020 11:15:54
Hardware: V1.00
Feature(s): GDB, RDI, FlashBP, FlashDL, JFlash, RDDI  returns O.K. (0265ms, 0531ms total)
T48A0 000:838 JLINK_SetErrorOutHandler(...) (0000ms, 0531ms total)
T48A0 000:838 JLINK_ExecCommand("ProjectFile = "C:\Users\rqzw\Desktop\ÔÆÒ©Ç°¶ËV1.0\cloudm_font\USER\JLinkSettings.ini"", ...)  returns 0x00 (0000ms, 0531ms total)
T48A0 000:838 JLINK_ExecCommand("Device = STM32F103RC", ...)Device "STM32F103RC" selected (256 KB flash, 48 KB RAM).  returns 0x00 (0001ms, 0532ms total)
T48A0 000:839 JLINK_ExecCommand("DisableConnectionTimeout", ...)  returns 0x01 (0000ms, 0532ms total)
T48A0 000:839 JLINK_GetHardwareVersion()  returns 0x2710 (0000ms, 0532ms total)
T48A0 000:839 JLINK_GetDLLVersion()  returns 49000 (0000ms, 0532ms total)
T48A0 000:839 JLINK_GetFirmwareString(...) (0000ms, 0532ms total)
T48A0 000:839 JLINK_GetDLLVersion()  returns 49000 (0000ms, 0532ms total)
T48A0 000:839 JLINK_GetCompileDateTime() (0000ms, 0532ms total)
T48A0 000:839 JLINK_GetFirmwareString(...) (0000ms, 0532ms total)
T48A0 000:839 JLINK_GetHardwareVersion()  returns 0x2710 (0000ms, 0532ms total)
T48A0 000:839 JLINK_TIF_Select(JLINKARM_TIF_SWD)  returns 0x00 (0001ms, 0533ms total)
T48A0 000:840 JLINK_SetSpeed(5000) (0000ms, 0533ms total)
T48A0 000:840 JLINK_GetId() >0x108 TIF>Found SWD-DP with ID 0x1BA01477 >0x0D TIF> >0x28 TIF> >0x0D TIF> >0x28 TIF> >0x0D TIF> >0x21 TIF> >0x0D TIF> >0x28 TIF> >0x0D TIF> >0x28 TIF> >0x0D TIF> >0x28 TIF> >0x0D TIF> >0x21 TIF> >0x0D TIF> >0x21 TIF> >0x0D TIF> >0x28 TIF> >0x0D TIF> >0x21 TIF> >0x0D TIF> >0x21 TIF> >0x108 TIF>Found SWD-DP with ID 0x1BA01477 >0x0D TIF> >0x21 TIF> >0x0D TIF> >0x28 TIF> >0x0D TIF> >0x28 TIF> >0x0D TIF> >0x21 TIF> >0x0D TIF> >0x28 TIF> >0x0D TIF> >0x21 TIF> >0x0D TIF> >0x21 TIF>
 >0x0D TIF> >0x21 TIF> >0x0D TIF> >0x21 TIF> >0x0D TIF> >0x28 TIF> >0x0D TIF> >0x28 TIF> >0x0D TIF> >0x21 TIF> >0x0D TIF> >0x28 TIF> >0x0D TIF> >0x28 TIF> >0x0D TIF> >0x28 TIF> >0x0D TIF> >0x21 TIF> >0x0D TIF> >0x21 TIF> >0x0D TIF> >0x28 TIF> >0x0D TIF> >0x21 TIF> >0x0D TIF> >0x21 TIF>Found Cortex-M3 r1p1, Little endian. -- CPU_WriteMem(4 bytes @ 0xE0002000) -- CPU_ReadMem(4 bytes @ 0xE000EDF0) -- CPU_ReadMem(4 bytes @ 0xE0002000)FPUnit: 6 code (BP) slots and 2 literal slots
 -- CPU_ReadMem(4 bytes @ 0xE000EDFC) -- CPU_ReadMem(4 bytes @ 0xE0001000) -- CPU_WriteMem(4 bytes @ 0xE0001000) -- CPU_ReadMem(4 bytes @ 0xE00FF010)TPIU fitted. -- CPU_ReadMem(4 bytes @ 0xE00FF014)ETM fitted. -- CPU_ReadMem(4 bytes @ 0xE00FF018) >0x0D TIF> >0x21 TIF>  returns 0x1BA01477 (0021ms, 0554ms total)
T48A0 000:861 JLINK_GetDLLVersion()  returns 49000 (0000ms, 0554ms total)
T48A0 000:861 JLINK_CORE_GetFound()  returns 0x30000FF (0000ms, 0554ms total)
T48A0 000:861 JLINK_GetDebugInfo(0x100) -- Value=0xE00FF003  returns 0x00 (0000ms, 0554ms total)
T48A0 000:861 JLINK_GetDebugInfo(0x101)  returns 0xFFFFFFFF (0000ms, 0554ms total)
T48A0 000:861 JLINK_ReadMem (0xE0041FF0, 0x0010 Bytes, ...) -- CPU is running -- CPU_ReadMem(16 bytes @ 0xE0041FF0) - Data: 0D 00 00 00 90 00 00 00 05 00 00 00 B1 00 00 00  returns 0x00 (0001ms, 0555ms total)
T48A0 000:862 JLINK_GetDebugInfo(0x102)  returns 0xFFFFFFFF (0000ms, 0555ms total)
T48A0 000:862 JLINK_GetDebugInfo(0x103)  returns 0xFFFFFFFF (0000ms, 0555ms total)
T48A0 000:862 JLINK_ReadMem (0xE0040FF0, 0x0010 Bytes, ...) -- CPU is running -- CPU_ReadMem(16 bytes @ 0xE0040FF0) - Data: 0D 00 00 00 90 00 00 00 05 00 00 00 B1 00 00 00  returns 0x00 (0001ms, 0556ms total)
T48A0 000:863 JLINK_GetDebugInfo(0x104)  returns 0xFFFFFFFF (0000ms, 0556ms total)
T48A0 000:863 JLINK_GetDebugInfo(0x105)  returns 0xFFFFFFFF (0000ms, 0556ms total)
T48A0 000:863 JLINK_GetDebugInfo(0x106)  returns 0xFFFFFFFF (0000ms, 0556ms total)
T48A0 000:863 JLINK_GetDebugInfo(0x107)  returns 0xFFFFFFFF (0000ms, 0556ms total)
T48A0 000:863 JLINK_GetDebugInfo(0x10C)  returns 0xFFFFFFFF (0000ms, 0556ms total)
T48A0 000:863 JLINK_ReadMemU32(0xE000ED00, 0x0001 Items, ...) -- CPU is running -- CPU_ReadMem(4 bytes @ 0xE000ED00) - Data: 31 C2 1F 41  returns 0x01 (0000ms, 0556ms total)
T48A0 000:863 JLINK_SetResetType(JLINKARM_RESET_TYPE_NORMAL)  returns JLINKARM_RESET_TYPE_NORMAL (0000ms, 0556ms total)
T48A0 000:863 JLINK_Reset() -- CPU is running -- CPU_WriteMem(4 bytes @ 0xE000EDF0) -- CPU is running -- CPU_WriteMem(4 bytes @ 0xE000EDFC) >0x35 TIF> -- CPU is running -- CPU_WriteMem(4 bytes @ 0xE000ED0C) -- CPU is running -- CPU_ReadMem(4 bytes @ 0xE000EDF0) -- CPU is running -- CPU_ReadMem(4 bytes @ 0xE000EDF0) -- CPU is running -- CPU_WriteMem(4 bytes @ 0xE000EDF0) -- CPU is running -- CPU_WriteMem(4 bytes @ 0xE000EDFC) -- CPU is running -- CPU_ReadMem(4 bytes @ 0xE000EDF0)
 -- CPU_WriteMem(4 bytes @ 0xE0002000) -- CPU_ReadMem(4 bytes @ 0xE000EDFC) -- CPU_ReadMem(4 bytes @ 0xE0001000) (0020ms, 0576ms total)
T48A0 000:883 JLINK_ReadReg(R15 (PC))  returns 0x08005768 (0000ms, 0576ms total)
T48A0 000:883 JLINK_ReadReg(XPSR)  returns 0x01000000 (0000ms, 0576ms total)
T48A0 000:883 JLINK_Halt()  returns 0x00 (0000ms, 0576ms total)
T48A0 000:883 JLINK_IsHalted()  returns TRUE (0000ms, 0576ms total)
T48A0 000:883 JLINK_ReadMemU32(0xE000EDF0, 0x0001 Items, ...) -- CPU_ReadMem(4 bytes @ 0xE000EDF0) - Data: 03 00 03 00  returns 0x01 (0001ms, 0577ms total)
T48A0 000:884 JLINK_WriteU32(0xE000EDF0, 0xA05F0003) -- CPU_WriteMem(4 bytes @ 0xE000EDF0)  returns 0x00 (0001ms, 0578ms total)
T48A0 000:885 JLINK_WriteU32(0xE000EDFC, 0x01000000) -- CPU_WriteMem(4 bytes @ 0xE000EDFC)  returns 0x00 (0000ms, 0578ms total)
T48A0 000:885 JLINK_GetHWStatus(...)  returns 0x00 (0001ms, 0579ms total)
T48A0 000:886 JLINK_GetNumBPUnits(Type = 0xFFFFFF00)  returns 0x06 (0000ms, 0579ms total)
T48A0 000:886 JLINK_GetNumBPUnits(Type = 0xF0)  returns 0x2000 (0000ms, 0579ms total)
T48A0 000:886 JLINK_GetNumWPUnits()  returns 0x04 (0000ms, 0579ms total)
T48A0 000:886 JLINK_GetSpeed()  returns 0x7D0 (0000ms, 0579ms total)
T48A0 000:886 JLINK_ReadMemU32(0xE000E004, 0x0001 Items, ...) -- CPU_ReadMem(4 bytes @ 0xE000E004) - Data: 01 00 00 00  returns 0x01 (0000ms, 0579ms total)
T48A0 000:886 JLINK_ReadMemU32(0xE000E004, 0x0001 Items, ...) -- CPU_ReadMem(4 bytes @ 0xE000E004) - Data: 01 00 00 00  returns 0x01 (0001ms, 0580ms total)
T48A0 000:887 JLINK_WriteMem(0xE0001000, 0x001C Bytes, ...) - Data: 01 00 00 00 00 00 00 00 00 00 00 00 00 00 00 00 ... -- CPU_WriteMem(28 bytes @ 0xE0001000)  returns 0x1C (0001ms, 0581ms total)
T48A0 000:888 JLINK_ReadMem (0xE0001000, 0x001C Bytes, ...) -- CPU_ReadMem(28 bytes @ 0xE0001000) - Data: 01 00 00 40 00 00 00 00 00 00 00 00 00 00 00 00 ...  returns 0x00 (0001ms, 0582ms total)
T48A0 000:889 JLINK_ReadReg(R15 (PC))  returns 0x08005768 (0000ms, 0582ms total)
T48A0 000:889 JLINK_ReadReg(XPSR)  returns 0x01000000 (0000ms, 0582ms total)
T48A0 000:967 JLINK_SetResetType(JLINKARM_RESET_TYPE_NORMAL)  returns JLINKARM_RESET_TYPE_NORMAL (0000ms, 0582ms total)
T48A0 000:967 JLINK_Reset() -- CPU_WriteMem(4 bytes @ 0xE000EDF0) -- CPU_WriteMem(4 bytes @ 0xE000EDFC) >0x35 TIF> -- CPU_WriteMem(4 bytes @ 0xE000ED0C) -- CPU_ReadMem(4 bytes @ 0xE000EDF0) -- CPU_ReadMem(4 bytes @ 0xE000EDF0) -- CPU_WriteMem(4 bytes @ 0xE000EDF0) -- CPU_WriteMem(4 bytes @ 0xE000EDFC) -- CPU is running -- CPU_ReadMem(4 bytes @ 0xE000EDF0) -- CPU_WriteMem(4 bytes @ 0xE0002000) -- CPU_ReadMem(4 bytes @ 0xE000EDFC) -- CPU_ReadMem(4 bytes @ 0xE0001000) (0019ms, 0601ms total)
T48A0 000:986 JLINK_ReadReg(R15 (PC))  returns 0x08005768 (0000ms, 0601ms total)
T48A0 000:986 JLINK_ReadReg(XPSR)  returns 0x01000000 (0001ms, 0602ms total)
T48A0 000:987 JLINK_ReadMem (0x08005768, 0x003C Bytes, ...) -- CPU_ReadMem(128 bytes @ 0x08005740) -- Updating C cache (128 bytes @ 0x08005740) -- Read from C cache (60 bytes @ 0x08005768) - Data: 09 48 80 47 09 48 00 47 FE E7 FE E7 FE E7 FE E7 ...  returns 0x00 (0002ms, 0604ms total)
T48A0 001:189 JLINK_ReadMem (0x40010800, 0x0004 Bytes, ...) -- CPU_ReadMem(4 bytes @ 0x40010800) - Data: 44 44 44 44  returns 0x00 (0000ms, 0604ms total)
T48A0 001:189 JLINK_ReadMem (0x40010804, 0x0004 Bytes, ...) -- CPU_ReadMem(4 bytes @ 0x40010804) - Data: 44 44 84 88  returns 0x00 (0001ms, 0605ms total)
T48A0 001:190 JLINK_ReadMem (0x40010808, 0x0004 Bytes, ...) -- CPU_ReadMem(4 bytes @ 0x40010808) - Data: 00 00 00 00  returns 0x00 (0000ms, 0605ms total)
T48A0 001:190 JLINK_ReadMem (0x4001080C, 0x0004 Bytes, ...) -- CPU_ReadMem(4 bytes @ 0x4001080C) - Data: 00 A0 00 00  returns 0x00 (0001ms, 0606ms total)
T48A0 001:191 JLINK_ReadMem (0x40010810, 0x0004 Bytes, ...) -- CPU_ReadMem(4 bytes @ 0x40010810) - Data: 00 00 00 00  returns 0x00 (0000ms, 0606ms total)
T48A0 001:191 JLINK_ReadMem (0x40010814, 0x0004 Bytes, ...) -- CPU_ReadMem(4 bytes @ 0x40010814) - Data: 00 00 00 00  returns 0x00 (0001ms, 0607ms total)
T48A0 001:192 JLINK_ReadMem (0x40010818, 0x0004 Bytes, ...) -- CPU_ReadMem(4 bytes @ 0x40010818) - Data: 00 00 00 00  returns 0x00 (0000ms, 0607ms total)
T48A0 001:193 JLINK_ReadMem (0x40021018, 0x0004 Bytes, ...) -- CPU_ReadMem(4 bytes @ 0x40021018) - Data: 00 00 00 00  returns 0x00 (0000ms, 0607ms total)
T48A0 001:193 JLINK_ReadMem (0x4002100C, 0x0004 Bytes, ...) -- CPU_ReadMem(4 bytes @ 0x4002100C) - Data: 00 00 00 00  returns 0x00 (0001ms, 0608ms total)
T48A0 001:282 JLINK_ReadMem (0x40010C00, 0x0004 Bytes, ...) -- CPU_ReadMem(4 bytes @ 0x40010C00) - Data: 44 44 48 44  returns 0x00 (0000ms, 0608ms total)
T48A0 001:282 JLINK_ReadMem (0x40010C04, 0x0004 Bytes, ...) -- CPU_ReadMem(4 bytes @ 0x40010C04) - Data: 44 44 44 44  returns 0x00 (0001ms, 0609ms total)
T48A0 001:283 JLINK_ReadMem (0x40010C08, 0x0004 Bytes, ...) -- CPU_ReadMem(4 bytes @ 0x40010C08) - Data: 00 00 00 00  returns 0x00 (0000ms, 0609ms total)
T48A0 001:283 JLINK_ReadMem (0x40010C0C, 0x0004 Bytes, ...) -- CPU_ReadMem(4 bytes @ 0x40010C0C) - Data: 10 00 00 00  returns 0x00 (0001ms, 0610ms total)
T48A0 001:284 JLINK_ReadMem (0x40010C10, 0x0004 Bytes, ...) -- CPU_ReadMem(4 bytes @ 0x40010C10) - Data: 00 00 00 00  returns 0x00 (0000ms, 0610ms total)
T48A0 001:284 JLINK_ReadMem (0x40010C14, 0x0004 Bytes, ...) -- CPU_ReadMem(4 bytes @ 0x40010C14) - Data: 00 00 00 00  returns 0x00 (0001ms, 0611ms total)
T48A0 001:285 JLINK_ReadMem (0x40010C18, 0x0004 Bytes, ...) -- CPU_ReadMem(4 bytes @ 0x40010C18) - Data: 00 00 00 00  returns 0x00 (0000ms, 0611ms total)
T48A0 001:286 JLINK_ReadMem (0x40021018, 0x0004 Bytes, ...) -- CPU_ReadMem(4 bytes @ 0x40021018) - Data: 00 00 00 00  returns 0x00 (0000ms, 0611ms total)
T48A0 001:286 JLINK_ReadMem (0x4002100C, 0x0004 Bytes, ...) -- CPU_ReadMem(4 bytes @ 0x4002100C) - Data: 00 00 00 00  returns 0x00 (0001ms, 0612ms total)
T48A0 001:383 JLINK_ReadMem (0x40011000, 0x0004 Bytes, ...) -- CPU_ReadMem(4 bytes @ 0x40011000) - Data: 44 44 44 44  returns 0x00 (0001ms, 0613ms total)
T48A0 001:384 JLINK_ReadMem (0x40011004, 0x0004 Bytes, ...) -- CPU_ReadMem(4 bytes @ 0x40011004) - Data: 44 44 44 44  returns 0x00 (0000ms, 0613ms total)
T48A0 001:384 JLINK_ReadMem (0x40011008, 0x0004 Bytes, ...) -- CPU_ReadMem(4 bytes @ 0x40011008) - Data: 00 00 00 00  returns 0x00 (0001ms, 0614ms total)
T48A0 001:385 JLINK_ReadMem (0x4001100C, 0x0004 Bytes, ...) -- CPU_ReadMem(4 bytes @ 0x4001100C) - Data: 00 00 00 00  returns 0x00 (0000ms, 0614ms total)
T48A0 001:385 JLINK_ReadMem (0x40011010, 0x0004 Bytes, ...) -- CPU_ReadMem(4 bytes @ 0x40011010) - Data: 00 00 00 00  returns 0x00 (0001ms, 0615ms total)
T48A0 001:386 JLINK_ReadMem (0x40011014, 0x0004 Bytes, ...) -- CPU_ReadMem(4 bytes @ 0x40011014) - Data: 00 00 00 00  returns 0x00 (0000ms, 0615ms total)
T48A0 001:386 JLINK_ReadMem (0x40011018, 0x0004 Bytes, ...) -- CPU_ReadMem(4 bytes @ 0x40011018) - Data: 00 00 00 00  returns 0x00 (0001ms, 0616ms total)
T48A0 001:388 JLINK_ReadMem (0x40021018, 0x0004 Bytes, ...) -- CPU_ReadMem(4 bytes @ 0x40021018) - Data: 00 00 00 00  returns 0x00 (0001ms, 0617ms total)
T48A0 001:389 JLINK_ReadMem (0x4002100C, 0x0004 Bytes, ...) -- CPU_ReadMem(4 bytes @ 0x4002100C) - Data: 00 00 00 00  returns 0x00 (0001ms, 0618ms total)
T48A0 001:470 JLINK_ReadMem (0x40021000, 0x0004 Bytes, ...) -- CPU_ReadMem(4 bytes @ 0x40021000) - Data: 83 51 00 00  returns 0x00 (0001ms, 0619ms total)
T48A0 001:471 JLINK_ReadMem (0x40021004, 0x0004 Bytes, ...) -- CPU_ReadMem(4 bytes @ 0x40021004) - Data: 00 00 00 00  returns 0x00 (0001ms, 0620ms total)
T48A0 001:472 JLINK_ReadMem (0x40021020, 0x0004 Bytes, ...) -- CPU_ReadMem(4 bytes @ 0x40021020) - Data: 00 00 00 00  returns 0x00 (0000ms, 0620ms total)
T48A0 001:472 JLINK_ReadMem (0x40013800, 0x0004 Bytes, ...) -- CPU_ReadMem(4 bytes @ 0x40013800) - Data: 00 00 00 00  returns 0x00 (0001ms, 0621ms total)
T48A0 001:473 JLINK_ReadMem (0x40013804, 0x0004 Bytes, ...) -- CPU_ReadMem(4 bytes @ 0x40013804) - Data: 00 00 00 00  returns 0x00 (0000ms, 0621ms total)
T48A0 001:473 JLINK_ReadMem (0x40013808, 0x0004 Bytes, ...) -- CPU_ReadMem(4 bytes @ 0x40013808) - Data: 00 00 00 00  returns 0x00 (0001ms, 0622ms total)
T48A0 001:474 JLINK_ReadMem (0x4001380C, 0x0004 Bytes, ...) -- CPU_ReadMem(4 bytes @ 0x4001380C) - Data: 00 00 00 00  returns 0x00 (0001ms, 0623ms total)
T48A0 001:475 JLINK_ReadMem (0x40013810, 0x0004 Bytes, ...) -- CPU_ReadMem(4 bytes @ 0x40013810) - Data: 00 00 00 00  returns 0x00 (0000ms, 0623ms total)
T48A0 001:475 JLINK_ReadMem (0x40013814, 0x0004 Bytes, ...) -- CPU_ReadMem(4 bytes @ 0x40013814) - Data: 00 00 00 00  returns 0x00 (0001ms, 0624ms total)
T48A0 001:476 JLINK_ReadMem (0x40013818, 0x0004 Bytes, ...) -- CPU_ReadMem(4 bytes @ 0x40013818) - Data: 00 00 00 00  returns 0x00 (0000ms, 0624ms total)
T48A0 001:476 JLINK_ReadMem (0x40021000, 0x0004 Bytes, ...) -- CPU_ReadMem(4 bytes @ 0x40021000) - Data: 83 51 00 00  returns 0x00 (0001ms, 0625ms total)
T48A0 001:477 JLINK_ReadMem (0x40021004, 0x0004 Bytes, ...) -- CPU_ReadMem(4 bytes @ 0x40021004) - Data: 00 00 00 00  returns 0x00 (0000ms, 0625ms total)
T48A0 001:477 JLINK_ReadMem (0x40021020, 0x0004 Bytes, ...) -- CPU_ReadMem(4 bytes @ 0x40021020) - Data: 00 00 00 00  returns 0x00 (0001ms, 0626ms total)
T48A0 001:478 JLINK_ReadMem (0x40021018, 0x0004 Bytes, ...) -- CPU_ReadMem(4 bytes @ 0x40021018) - Data: 00 00 00 00  returns 0x00 (0001ms, 0627ms total)
T48A0 001:479 JLINK_ReadMem (0x4002100C, 0x0004 Bytes, ...) -- CPU_ReadMem(4 bytes @ 0x4002100C) - Data: 00 00 00 00  returns 0x00 (0000ms, 0627ms total)
T48A0 001:533 JLINK_ReadMem (0x4001380C, 0x0004 Bytes, ...) -- CPU_ReadMem(4 bytes @ 0x4001380C) - Data: 00 00 00 00  returns 0x00 (0001ms, 0628ms total)
T48A0 001:570 JLINK_ReadMem (0x40013800, 0x0018 Bytes, ...) -- CPU_ReadMem(24 bytes @ 0x40013800) - Data: 00 00 00 00 00 00 00 00 00 00 00 00 00 00 00 00 ...  returns 0x00 (0000ms, 0628ms total)
T48A0 001:570 JLINK_ReadMem (0x40013818, 0x0004 Bytes, ...) -- CPU_ReadMem(4 bytes @ 0x40013818) - Data: 00 00 00 00  returns 0x00 (0001ms, 0629ms total)
T48A0 001:703 JLINK_ReadMem (0x40004800, 0x0018 Bytes, ...) -- CPU_ReadMem(24 bytes @ 0x40004800) - Data: 00 00 00 00 00 00 00 00 00 00 00 00 00 00 00 00 ...  returns 0x00 (0001ms, 0630ms total)
T48A0 001:704 JLINK_ReadMem (0x40004818, 0x0004 Bytes, ...) -- CPU_ReadMem(4 bytes @ 0x40004818) - Data: 00 00 00 00  returns 0x00 (0001ms, 0631ms total)
T48A0 003:780 JLINK_ReadMem (0x2000005D, 0x0001 Bytes, ...) -- CPU_ReadMem(64 bytes @ 0x20000040) -- Updating C cache (64 bytes @ 0x20000040) -- Read from C cache (1 bytes @ 0x2000005D) - Data: 00  returns 0x00 (0001ms, 0632ms total)
T48A0 003:800 JLINK_ReadMem (0x2000003C, 0x0002 Bytes, ...) -- CPU_ReadMem(64 bytes @ 0x20000000) -- Updating C cache (64 bytes @ 0x20000000) -- Read from C cache (2 bytes @ 0x2000003C) - Data: 00 00  returns 0x00 (0002ms, 0634ms total)
T48A0 003:802 JLINK_ReadMem (0x2000009C, 0x0001 Bytes, ...) -- CPU_ReadMem(64 bytes @ 0x20000080) -- Updating C cache (64 bytes @ 0x20000080) -- Read from C cache (1 bytes @ 0x2000009C) - Data: 00  returns 0x00 (0001ms, 0635ms total)
T48A0 003:815 JLINK_ReadMem (0x2000009C, 0x0020 Bytes, ...) -- Read from C cache (32 bytes @ 0x2000009C) - Data: 00 00 00 00 00 00 00 00 00 00 00 00 00 00 00 00 ...  returns 0x00 (0000ms, 0635ms total)
T48A0 003:825 JLINK_ReadMem (0x2000005C, 0x0001 Bytes, ...) -- Read from C cache (1 bytes @ 0x2000005C) - Data: 00  returns 0x00 (0000ms, 0635ms total)
T48A0 003:844 JLINK_ReadMem (0x20000054, 0x0008 Bytes, ...) -- Read from C cache (8 bytes @ 0x20000054) - Data: 00 00 00 00 00 00 00 00  returns 0x00 (0000ms, 0635ms total)
T48A0 003:862 JLINK_ReadMem (0x20000024, 0x0004 Bytes, ...) -- Read from C cache (4 bytes @ 0x20000024) - Data: 00 00 00 00  returns 0x00 (0000ms, 0635ms total)
T48A0 003:872 JLINK_ReadMem (0x40010C10, 0x0004 Bytes, ...) -- CPU_ReadMem(4 bytes @ 0x40010C10) - Data: 00 00 00 00  returns 0x00 (0001ms, 0636ms total)
T48A0 003:873 JLINK_ReadMem (0x40010C10, 0x0004 Bytes, ...) -- CPU_ReadMem(4 bytes @ 0x40010C10) - Data: 00 00 00 00  returns 0x00 (0001ms, 0637ms total)
T48A0 003:874 JLINK_ReadMem (0x40010C10, 0x0004 Bytes, ...) -- CPU_ReadMem(4 bytes @ 0x40010C10) - Data: 00 00 00 00  returns 0x00 (0000ms, 0637ms total)
T48A0 003:895 JLINK_ReadMem (0x20000070, 0x000A Bytes, ...) -- Read from C cache (10 bytes @ 0x20000070) - Data: 00 00 00 00 00 00 00 00 00 00  returns 0x00 (0000ms, 0637ms total)
T48A0 003:908 JLINK_ReadMem (0x2000007A, 0x000A Bytes, ...) -- Read from C cache (10 bytes @ 0x2000007A) - Data: 00 00 00 00 00 00 00 00 00 00  returns 0x00 (0000ms, 0637ms total)
T48A0 003:921 JLINK_ReadMem (0x20000004, 0x0004 Bytes, ...) -- Read from C cache (4 bytes @ 0x20000004) - Data: 00 00 00 00  returns 0x00 (0000ms, 0637ms total)
T48A0 003:944 JLINK_ReadMem (0x2000002C, 0x0004 Bytes, ...) -- Read from C cache (4 bytes @ 0x2000002C) - Data: 42 00 00 00  returns 0x00 (0000ms, 0637ms total)
T48A0 003:957 JLINK_ReadMem (0x20000030, 0x0002 Bytes, ...) -- Read from C cache (2 bytes @ 0x20000030) - Data: 01 00  returns 0x00 (0000ms, 0637ms total)
T2F50 004:015 JLINK_SetBPEx(Addr = 0x080003C4, Type = 0xFFFFFFF2)  returns 0x00000001 (0000ms, 0637ms total)
T2F50 004:015 JLINK_Go() -- CPU_WriteMem(4 bytes @ 0xE0002000) -- CPU_WriteMem(4 bytes @ 0xE0002008) -- CPU_WriteMem(4 bytes @ 0xE000200C) -- CPU_WriteMem(4 bytes @ 0xE0002010) -- CPU_WriteMem(4 bytes @ 0xE0002014) -- CPU_WriteMem(4 bytes @ 0xE0002018) -- CPU_WriteMem(4 bytes @ 0xE000201C) -- CPU_WriteMem(4 bytes @ 0xE0001004) (0005ms, 0642ms total)
T2F50 004:121 JLINK_IsHalted()  returns TRUE (0005ms, 0647ms total)
T2F50 004:126 JLINK_Halt()  returns 0x00 (0000ms, 0642ms total)
T2F50 004:126 JLINK_IsHalted()  returns TRUE (0000ms, 0642ms total)
T2F50 004:127 JLINK_IsHalted()  returns TRUE (0000ms, 0642ms total)
T2F50 004:127 JLINK_IsHalted()  returns TRUE (0000ms, 0642ms total)
T2F50 004:127 JLINK_ReadReg(R15 (PC))  returns 0x080003C4 (0000ms, 0642ms total)
T2F50 004:127 JLINK_ReadReg(XPSR)  returns 0x61000000 (0000ms, 0642ms total)
T2F50 004:127 JLINK_ClrBPEx(BPHandle = 0x00000001)  returns 0x00 (0000ms, 0642ms total)
T2F50 004:127 JLINK_ReadMemU32(0xE000ED30, 0x0001 Items, ...) -- CPU_ReadMem(4 bytes @ 0xE000ED30) - Data: 02 00 00 00  returns 0x01 (0000ms, 0642ms total)
T2F50 004:127 JLINK_ReadMemU32(0xE0001028, 0x0001 Items, ...) -- CPU_ReadMem(4 bytes @ 0xE0001028) - Data: 00 00 00 00  returns 0x01 (0001ms, 0643ms total)
T2F50 004:128 JLINK_ReadMemU32(0xE0001038, 0x0001 Items, ...) -- CPU_ReadMem(4 bytes @ 0xE0001038) - Data: 00 02 00 00  returns 0x01 (0000ms, 0643ms total)
T2F50 004:128 JLINK_ReadMemU32(0xE0001048, 0x0001 Items, ...) -- CPU_ReadMem(4 bytes @ 0xE0001048) - Data: 00 00 00 00  returns 0x01 (0001ms, 0644ms total)
T2F50 004:129 JLINK_ReadMemU32(0xE0001058, 0x0001 Items, ...) -- CPU_ReadMem(4 bytes @ 0xE0001058) - Data: 00 00 00 00  returns 0x01 (0000ms, 0644ms total)
T2F50 004:130 JLINK_ReadReg(R0)  returns 0x20000680 (0000ms, 0644ms total)
T2F50 004:130 JLINK_ReadReg(R1)  returns 0x20000880 (0000ms, 0644ms total)
T2F50 004:130 JLINK_ReadReg(R2)  returns 0x20000880 (0000ms, 0644ms total)
T2F50 004:130 JLINK_ReadReg(R3)  returns 0x20000880 (0000ms, 0644ms total)
T2F50 004:130 JLINK_ReadReg(R4)  returns 0x00000000 (0000ms, 0644ms total)
T2F50 004:130 JLINK_ReadReg(R5)  returns 0x20000620 (0000ms, 0644ms total)
T2F50 004:130 JLINK_ReadReg(R6)  returns 0x00000000 (0000ms, 0644ms total)
T2F50 004:130 JLINK_ReadReg(R7)  returns 0x00000000 (0000ms, 0644ms total)
T2F50 004:130 JLINK_ReadReg(R8)  returns 0x00000000 (0000ms, 0644ms total)
T2F50 004:130 JLINK_ReadReg(R9)  returns 0x20000160 (0000ms, 0644ms total)
T2F50 004:130 JLINK_ReadReg(R10)  returns 0x0800B890 (0000ms, 0644ms total)
T2F50 004:130 JLINK_ReadReg(R11)  returns 0x00000000 (0000ms, 0644ms total)
T2F50 004:130 JLINK_ReadReg(R12)  returns 0x20000660 (0001ms, 0645ms total)
T2F50 004:131 JLINK_ReadReg(R13 (SP))  returns 0x20000C80 (0000ms, 0645ms total)
T2F50 004:131 JLINK_ReadReg(R14)  returns 0x08000267 (0000ms, 0645ms total)
T2F50 004:131 JLINK_ReadReg(R15 (PC))  returns 0x080003C4 (0000ms, 0645ms total)
T2F50 004:131 JLINK_ReadReg(XPSR)  returns 0x61000000 (0000ms, 0645ms total)
T2F50 004:131 JLINK_ReadReg(MSP)  returns 0x20000C80 (0000ms, 0645ms total)
T2F50 004:131 JLINK_ReadReg(PSP)  returns 0x20001000 (0000ms, 0645ms total)
T2F50 004:131 JLINK_ReadReg(CFBP)  returns 0x00000000 (0000ms, 0645ms total)
T48A0 004:134 JLINK_ReadMemU32(0xE0001004, 0x0001 Items, ...) -- CPU_ReadMem(4 bytes @ 0xE0001004) - Data: FA 15 00 00  returns 0x01 (0001ms, 0646ms total)
T48A0 004:141 JLINK_ReadMem (0x2000005D, 0x0001 Bytes, ...) -- CPU_ReadMem(64 bytes @ 0x20000040) -- Updating C cache (64 bytes @ 0x20000040) -- Read from C cache (1 bytes @ 0x2000005D) - Data: 00  returns 0x00 (0001ms, 0647ms total)
T48A0 004:142 JLINK_ReadMem (0x2000003C, 0x0002 Bytes, ...) -- CPU_ReadMem(64 bytes @ 0x20000000) -- Updating C cache (64 bytes @ 0x20000000) -- Read from C cache (2 bytes @ 0x2000003C) - Data: 00 00  returns 0x00 (0001ms, 0648ms total)
T48A0 004:143 JLINK_ReadMem (0x2000009C, 0x0001 Bytes, ...) -- CPU_ReadMem(64 bytes @ 0x20000080) -- Updating C cache (64 bytes @ 0x20000080) -- Read from C cache (1 bytes @ 0x2000009C) - Data: 00  returns 0x00 (0001ms, 0649ms total)
T48A0 004:144 JLINK_ReadMem (0x2000009C, 0x0020 Bytes, ...) -- Read from C cache (32 bytes @ 0x2000009C) - Data: 00 00 00 00 00 00 00 00 00 00 00 00 00 00 00 00 ...  returns 0x00 (0001ms, 0650ms total)
T48A0 004:145 JLINK_ReadMem (0x2000005C, 0x0001 Bytes, ...) -- Read from C cache (1 bytes @ 0x2000005C) - Data: 00  returns 0x00 (0000ms, 0650ms total)
T48A0 004:145 JLINK_ReadMem (0x20000054, 0x0008 Bytes, ...) -- Read from C cache (8 bytes @ 0x20000054) - Data: 00 00 00 00 00 00 00 00  returns 0x00 (0000ms, 0650ms total)
T48A0 004:145 JLINK_ReadMem (0x20000024, 0x0004 Bytes, ...) -- Read from C cache (4 bytes @ 0x20000024) - Data: 00 00 00 00  returns 0x00 (0000ms, 0650ms total)
T48A0 004:145 JLINK_ReadMem (0x40010C10, 0x0004 Bytes, ...) -- CPU_ReadMem(4 bytes @ 0x40010C10) - Data: 00 00 00 00  returns 0x00 (0001ms, 0651ms total)
T48A0 004:146 JLINK_ReadMem (0x20000070, 0x000A Bytes, ...) -- Read from C cache (10 bytes @ 0x20000070) - Data: 00 00 00 00 00 00 00 00 00 00  returns 0x00 (0000ms, 0651ms total)
T48A0 004:146 JLINK_ReadMem (0x2000007A, 0x000A Bytes, ...) -- Read from C cache (10 bytes @ 0x2000007A) - Data: 00 00 00 00 00 00 00 00 00 00  returns 0x00 (0000ms, 0651ms total)
T48A0 004:146 JLINK_ReadMem (0x20000004, 0x0004 Bytes, ...) -- Read from C cache (4 bytes @ 0x20000004) - Data: 00 00 00 00  returns 0x00 (0000ms, 0651ms total)
T48A0 004:146 JLINK_ReadMem (0x2000002C, 0x0004 Bytes, ...) -- Read from C cache (4 bytes @ 0x2000002C) - Data: 42 00 00 00  returns 0x00 (0000ms, 0651ms total)
T48A0 004:146 JLINK_ReadMem (0x20000030, 0x0002 Bytes, ...) -- Read from C cache (2 bytes @ 0x20000030) - Data: 01 00  returns 0x00 (0000ms, 0651ms total)
T48A0 004:148 JLINK_ReadMem (0x40010800, 0x0004 Bytes, ...) -- CPU_ReadMem(4 bytes @ 0x40010800) - Data: 44 44 44 44  returns 0x00 (0000ms, 0651ms total)
T48A0 004:148 JLINK_ReadMem (0x40010804, 0x0004 Bytes, ...) -- CPU_ReadMem(4 bytes @ 0x40010804) - Data: 44 44 84 88  returns 0x00 (0001ms, 0652ms total)
T48A0 004:149 JLINK_ReadMem (0x40010808, 0x0004 Bytes, ...) -- CPU_ReadMem(4 bytes @ 0x40010808) - Data: 00 00 00 00  returns 0x00 (0000ms, 0652ms total)
T48A0 004:149 JLINK_ReadMem (0x4001080C, 0x0004 Bytes, ...) -- CPU_ReadMem(4 bytes @ 0x4001080C) - Data: 00 A0 00 00  returns 0x00 (0001ms, 0653ms total)
T48A0 004:150 JLINK_ReadMem (0x40010810, 0x0004 Bytes, ...) -- CPU_ReadMem(4 bytes @ 0x40010810) - Data: 00 00 00 00  returns 0x00 (0000ms, 0653ms total)
T48A0 004:150 JLINK_ReadMem (0x40010814, 0x0004 Bytes, ...) -- CPU_ReadMem(4 bytes @ 0x40010814) - Data: 00 00 00 00  returns 0x00 (0001ms, 0654ms total)
T48A0 004:151 JLINK_ReadMem (0x40010818, 0x0004 Bytes, ...) -- CPU_ReadMem(4 bytes @ 0x40010818) - Data: 00 00 00 00  returns 0x00 (0000ms, 0654ms total)
T48A0 004:151 JLINK_ReadMem (0x40021018, 0x0004 Bytes, ...) -- CPU_ReadMem(4 bytes @ 0x40021018) - Data: 00 00 00 00  returns 0x00 (0001ms, 0655ms total)
T48A0 004:152 JLINK_ReadMem (0x4002100C, 0x0004 Bytes, ...) -- CPU_ReadMem(4 bytes @ 0x4002100C) - Data: 00 00 00 00  returns 0x00 (0000ms, 0655ms total)
T48A0 004:152 JLINK_ReadMem (0x40010C00, 0x0004 Bytes, ...) -- CPU_ReadMem(4 bytes @ 0x40010C00) - Data: 44 44 48 44  returns 0x00 (0001ms, 0656ms total)
T48A0 004:153 JLINK_ReadMem (0x40010C04, 0x0004 Bytes, ...) -- CPU_ReadMem(4 bytes @ 0x40010C04) - Data: 44 44 44 44  returns 0x00 (0000ms, 0656ms total)
T48A0 004:153 JLINK_ReadMem (0x40010C08, 0x0004 Bytes, ...) -- CPU_ReadMem(4 bytes @ 0x40010C08) - Data: 00 00 00 00  returns 0x00 (0001ms, 0657ms total)
T48A0 004:154 JLINK_ReadMem (0x40010C0C, 0x0004 Bytes, ...) -- CPU_ReadMem(4 bytes @ 0x40010C0C) - Data: 10 00 00 00  returns 0x00 (0001ms, 0658ms total)
T48A0 004:155 JLINK_ReadMem (0x40010C10, 0x0004 Bytes, ...) -- CPU_ReadMem(4 bytes @ 0x40010C10) - Data: 00 00 00 00  returns 0x00 (0000ms, 0658ms total)
T48A0 004:155 JLINK_ReadMem (0x40010C14, 0x0004 Bytes, ...) -- CPU_ReadMem(4 bytes @ 0x40010C14) - Data: 00 00 00 00  returns 0x00 (0001ms, 0659ms total)
T48A0 004:156 JLINK_ReadMem (0x40010C18, 0x0004 Bytes, ...) -- CPU_ReadMem(4 bytes @ 0x40010C18) - Data: 00 00 00 00  returns 0x00 (0000ms, 0659ms total)
T48A0 004:156 JLINK_ReadMem (0x40021018, 0x0004 Bytes, ...) -- CPU_ReadMem(4 bytes @ 0x40021018) - Data: 00 00 00 00  returns 0x00 (0001ms, 0660ms total)
T48A0 004:157 JLINK_ReadMem (0x4002100C, 0x0004 Bytes, ...) -- CPU_ReadMem(4 bytes @ 0x4002100C) - Data: 00 00 00 00  returns 0x00 (0000ms, 0660ms total)
T48A0 004:157 JLINK_ReadMem (0x40011000, 0x0004 Bytes, ...) -- CPU_ReadMem(4 bytes @ 0x40011000) - Data: 44 44 44 44  returns 0x00 (0001ms, 0661ms total)
T48A0 004:158 JLINK_ReadMem (0x40011004, 0x0004 Bytes, ...) -- CPU_ReadMem(4 bytes @ 0x40011004) - Data: 44 44 44 44  returns 0x00 (0000ms, 0661ms total)
T48A0 004:158 JLINK_ReadMem (0x40011008, 0x0004 Bytes, ...) -- CPU_ReadMem(4 bytes @ 0x40011008) - Data: 00 00 00 00  returns 0x00 (0001ms, 0662ms total)
T48A0 004:159 JLINK_ReadMem (0x4001100C, 0x0004 Bytes, ...) -- CPU_ReadMem(4 bytes @ 0x4001100C) - Data: 00 00 00 00  returns 0x00 (0000ms, 0662ms total)
T48A0 004:159 JLINK_ReadMem (0x40011010, 0x0004 Bytes, ...) -- CPU_ReadMem(4 bytes @ 0x40011010) - Data: 00 00 00 00  returns 0x00 (0001ms, 0663ms total)
T48A0 004:160 JLINK_ReadMem (0x40011014, 0x0004 Bytes, ...) -- CPU_ReadMem(4 bytes @ 0x40011014) - Data: 00 00 00 00  returns 0x00 (0000ms, 0663ms total)
T48A0 004:160 JLINK_ReadMem (0x40011018, 0x0004 Bytes, ...) -- CPU_ReadMem(4 bytes @ 0x40011018) - Data: 00 00 00 00  returns 0x00 (0001ms, 0664ms total)
T48A0 004:161 JLINK_ReadMem (0x40021018, 0x0004 Bytes, ...) -- CPU_ReadMem(4 bytes @ 0x40021018) - Data: 00 00 00 00  returns 0x00 (0000ms, 0664ms total)
T48A0 004:161 JLINK_ReadMem (0x4002100C, 0x0004 Bytes, ...) -- CPU_ReadMem(4 bytes @ 0x4002100C) - Data: 00 00 00 00  returns 0x00 (0001ms, 0665ms total)
T48A0 004:162 JLINK_ReadMem (0x40021000, 0x0004 Bytes, ...) -- CPU_ReadMem(4 bytes @ 0x40021000) - Data: 83 51 03 03  returns 0x00 (0000ms, 0665ms total)
T48A0 004:162 JLINK_ReadMem (0x40021004, 0x0004 Bytes, ...) -- CPU_ReadMem(4 bytes @ 0x40021004) - Data: 0A 04 1D 00  returns 0x00 (0001ms, 0666ms total)
T48A0 004:163 JLINK_ReadMem (0x40021020, 0x0004 Bytes, ...) -- CPU_ReadMem(4 bytes @ 0x40021020) - Data: 00 00 00 00  returns 0x00 (0001ms, 0667ms total)
T48A0 004:164 JLINK_ReadMem (0x40013800, 0x0004 Bytes, ...) -- CPU_ReadMem(4 bytes @ 0x40013800) - Data: 00 00 00 00  returns 0x00 (0000ms, 0667ms total)
T48A0 004:164 JLINK_ReadMem (0x40013804, 0x0004 Bytes, ...) -- CPU_ReadMem(4 bytes @ 0x40013804) - Data: 00 00 00 00  returns 0x00 (0001ms, 0668ms total)
T48A0 004:165 JLINK_ReadMem (0x40013808, 0x0004 Bytes, ...) -- CPU_ReadMem(4 bytes @ 0x40013808) - Data: 00 00 00 00  returns 0x00 (0000ms, 0668ms total)
T48A0 004:165 JLINK_ReadMem (0x4001380C, 0x0004 Bytes, ...) -- CPU_ReadMem(4 bytes @ 0x4001380C) - Data: 00 00 00 00  returns 0x00 (0001ms, 0669ms total)
T48A0 004:166 JLINK_ReadMem (0x40013810, 0x0004 Bytes, ...) -- CPU_ReadMem(4 bytes @ 0x40013810) - Data: 00 00 00 00  returns 0x00 (0000ms, 0669ms total)
T48A0 004:166 JLINK_ReadMem (0x40013814, 0x0004 Bytes, ...) -- CPU_ReadMem(4 bytes @ 0x40013814) - Data: 00 00 00 00  returns 0x00 (0001ms, 0670ms total)
T48A0 004:167 JLINK_ReadMem (0x40013818, 0x0004 Bytes, ...) -- CPU_ReadMem(4 bytes @ 0x40013818) - Data: 00 00 00 00  returns 0x00 (0000ms, 0670ms total)
T48A0 004:167 JLINK_ReadMem (0x40021000, 0x0004 Bytes, ...) -- CPU_ReadMem(4 bytes @ 0x40021000) - Data: 83 51 03 03  returns 0x00 (0001ms, 0671ms total)
T48A0 004:168 JLINK_ReadMem (0x40021004, 0x0004 Bytes, ...) -- CPU_ReadMem(4 bytes @ 0x40021004) - Data: 0A 04 1D 00  returns 0x00 (0000ms, 0671ms total)
T48A0 004:168 JLINK_ReadMem (0x40021020, 0x0004 Bytes, ...) -- CPU_ReadMem(4 bytes @ 0x40021020) - Data: 00 00 00 00  returns 0x00 (0001ms, 0672ms total)
T48A0 004:169 JLINK_ReadMem (0x40021018, 0x0004 Bytes, ...) -- CPU_ReadMem(4 bytes @ 0x40021018) - Data: 00 00 00 00  returns 0x00 (0000ms, 0672ms total)
T48A0 004:169 JLINK_ReadMem (0x4002100C, 0x0004 Bytes, ...) -- CPU_ReadMem(4 bytes @ 0x4002100C) - Data: 00 00 00 00  returns 0x00 (0001ms, 0673ms total)
T48A0 004:170 JLINK_ReadMem (0x40013800, 0x0018 Bytes, ...) -- CPU_ReadMem(24 bytes @ 0x40013800) - Data: 00 00 00 00 00 00 00 00 00 00 00 00 00 00 00 00 ...  returns 0x00 (0001ms, 0674ms total)
T48A0 004:171 JLINK_ReadMem (0x40013818, 0x0004 Bytes, ...) -- CPU_ReadMem(4 bytes @ 0x40013818) - Data: 00 00 00 00  returns 0x00 (0001ms, 0675ms total)
T48A0 004:172 JLINK_ReadMem (0x40004800, 0x0018 Bytes, ...) -- CPU_ReadMem(24 bytes @ 0x40004800) - Data: 00 00 00 00 00 00 00 00 00 00 00 00 00 00 00 00 ...  returns 0x00 (0001ms, 0676ms total)
T48A0 004:173 JLINK_ReadMem (0x40004818, 0x0004 Bytes, ...) -- CPU_ReadMem(4 bytes @ 0x40004818) - Data: 00 00 00 00  returns 0x00 (0000ms, 0676ms total)
T48A0 004:174 JLINK_ReadMem (0x080003C4, 0x003C Bytes, ...) -- CPU_ReadMem(64 bytes @ 0x080003C0) -- Updating C cache (64 bytes @ 0x080003C0) -- Read from C cache (60 bytes @ 0x080003C4) - Data: 04 F0 D0 FF 4F F4 A0 60 05 F0 EC F9 4F F4 16 50 ...  returns 0x00 (0001ms, 0677ms total)
T2F50 004:882 JLINK_Go() -- CPU_WriteMem(4 bytes @ 0xE0002008) (0002ms, 0679ms total)
T2F50 004:984 JLINK_IsHalted()  returns FALSE (0001ms, 0680ms total)
T2F50 005:086 JLINK_IsHalted()  returns FALSE (0000ms, 0679ms total)
T2F50 005:187 JLINK_IsHalted()  returns FALSE (0000ms, 0679ms total)
T2F50 005:288 JLINK_IsHalted()  returns FALSE (0000ms, 0679ms total)
T2F50 005:388 JLINK_ReadMemU32(0xE0001004, 0x0001 Items, ...) -- CPU is running -- CPU_ReadMem(4 bytes @ 0xE0001004) - Data: B1 02 2B 02  returns 0x01 (0001ms, 0680ms total)
T48A0 005:393 JLINK_ReadMem (0x2000005D, 0x0001 Bytes, ...) -- CPU is running -- CPU_ReadMem(1 bytes @ 0x2000005D) - Data: 00  returns 0x00 (0000ms, 0680ms total)
T48A0 005:394 JLINK_ReadMem (0x2000003C, 0x0002 Bytes, ...) -- CPU is running -- CPU_ReadMem(2 bytes @ 0x2000003C) - Data: 00 00  returns 0x00 (0000ms, 0680ms total)
T48A0 005:394 JLINK_ReadMem (0x2000009C, 0x0001 Bytes, ...) -- CPU is running -- CPU_ReadMem(1 bytes @ 0x2000009C) - Data: 00  returns 0x00 (0001ms, 0681ms total)
T48A0 005:395 JLINK_ReadMem (0x2000009C, 0x0020 Bytes, ...) -- CPU is running -- CPU_ReadMem(32 bytes @ 0x2000009C) - Data: 00 00 00 00 00 00 00 00 00 00 00 00 00 00 00 00 ...  returns 0x00 (0001ms, 0682ms total)
T48A0 005:396 JLINK_ReadMem (0x2000005C, 0x0001 Bytes, ...) -- CPU is running -- CPU_ReadMem(1 bytes @ 0x2000005C) - Data: 00  returns 0x00 (0001ms, 0683ms total)
T48A0 005:397 JLINK_ReadMem (0x20000054, 0x0008 Bytes, ...) -- CPU is running -- CPU_ReadMem(8 bytes @ 0x20000054) - Data: 00 00 00 00 00 00 00 00  returns 0x00 (0001ms, 0684ms total)
T48A0 005:398 JLINK_ReadMem (0x20000024, 0x0004 Bytes, ...) -- CPU is running -- CPU_ReadMem(4 bytes @ 0x20000024) - Data: 00 00 00 00  returns 0x00 (0001ms, 0685ms total)
T48A0 005:399 JLINK_ReadMem (0x40010C10, 0x0004 Bytes, ...) -- CPU is running -- CPU_ReadMem(4 bytes @ 0x40010C10) - Data: 00 00 00 00  returns 0x00 (0001ms, 0686ms total)
T48A0 005:400 JLINK_ReadMem (0x2000009C, 0x0020 Bytes, ...) -- CPU is running -- CPU_ReadMem(32 bytes @ 0x2000009C) - Data: 00 00 00 00 00 00 00 00 00 00 00 00 00 00 00 00 ...  returns 0x00 (0001ms, 0687ms total)
T48A0 005:401 JLINK_ReadMem (0x20000070, 0x000A Bytes, ...) -- CPU is running -- CPU_ReadMem(10 bytes @ 0x20000070) - Data: 00 00 00 00 00 00 00 00 00 00  returns 0x00 (0000ms, 0687ms total)
T48A0 005:402 JLINK_ReadMem (0x2000007A, 0x000A Bytes, ...) -- CPU is running -- CPU_ReadMem(10 bytes @ 0x2000007A) - Data: 00 00 00 00 00 00 00 00 00 00  returns 0x00 (0000ms, 0687ms total)
T48A0 005:402 JLINK_ReadMem (0x20000004, 0x0004 Bytes, ...) -- CPU is running -- CPU_ReadMem(4 bytes @ 0x20000004) - Data: 00 00 00 00  returns 0x00 (0001ms, 0688ms total)
T48A0 005:403 JLINK_ReadMem (0x2000002C, 0x0004 Bytes, ...) -- CPU is running -- CPU_ReadMem(4 bytes @ 0x2000002C) - Data: 42 00 00 00  returns 0x00 (0000ms, 0688ms total)
T48A0 005:403 JLINK_ReadMem (0x20000030, 0x0002 Bytes, ...) -- CPU is running -- CPU_ReadMem(2 bytes @ 0x20000030) - Data: 01 00  returns 0x00 (0001ms, 0689ms total)
T48A0 005:404 JLINK_ReadMem (0x40010800, 0x0004 Bytes, ...) -- CPU is running -- CPU_ReadMem(4 bytes @ 0x40010800) - Data: 44 44 33 33  returns 0x00 (0000ms, 0689ms total)
T48A0 005:404 JLINK_ReadMem (0x40010804, 0x0004 Bytes, ...) -- CPU is running -- CPU_ReadMem(4 bytes @ 0x40010804) - Data: B4 44 84 88  returns 0x00 (0001ms, 0690ms total)
T48A0 005:405 JLINK_ReadMem (0x40010808, 0x0004 Bytes, ...) -- CPU is running -- CPU_ReadMem(4 bytes @ 0x40010808) - Data: 0F 9F 00 00  returns 0x00 (0000ms, 0690ms total)
T48A0 005:405 JLINK_ReadMem (0x4001080C, 0x0004 Bytes, ...) -- CPU is running -- CPU_ReadMem(4 bytes @ 0x4001080C) - Data: 00 A0 00 00  returns 0x00 (0001ms, 0691ms total)
T48A0 005:406 JLINK_ReadMem (0x40010810, 0x0004 Bytes, ...) -- CPU is running -- CPU_ReadMem(4 bytes @ 0x40010810) - Data: 00 00 00 00  returns 0x00 (0000ms, 0691ms total)
T48A0 005:407 JLINK_ReadMem (0x40010814, 0x0004 Bytes, ...) -- CPU is running -- CPU_ReadMem(4 bytes @ 0x40010814) - Data: 00 00 00 00  returns 0x00 (0000ms, 0692ms total)
T48A0 005:407 JLINK_ReadMem (0x40010818, 0x0004 Bytes, ...) -- CPU is running -- CPU_ReadMem(4 bytes @ 0x40010818) - Data: 00 00 00 00  returns 0x00 (0001ms, 0693ms total)
T48A0 005:410 JLINK_ReadMem (0x40021018, 0x0004 Bytes, ...) -- CPU is running -- CPU_ReadMem(4 bytes @ 0x40021018) - Data: 1D 40 00 00  returns 0x00 (0000ms, 0693ms total)
T48A0 005:410 JLINK_ReadMem (0x4002100C, 0x0004 Bytes, ...) -- CPU is running -- CPU_ReadMem(4 bytes @ 0x4002100C) - Data: 00 00 00 00  returns 0x00 (0001ms, 0694ms total)
T48A0 005:411 JLINK_ReadMem (0x40010C00, 0x0004 Bytes, ...) -- CPU is running -- CPU_ReadMem(4 bytes @ 0x40010C00) - Data: 44 44 33 33  returns 0x00 (0001ms, 0695ms total)
T48A0 005:412 JLINK_ReadMem (0x40010C04, 0x0004 Bytes, ...) -- CPU is running -- CPU_ReadMem(4 bytes @ 0x40010C04) - Data: 44 4B B3 BB  returns 0x00 (0000ms, 0695ms total)
T48A0 005:412 JLINK_ReadMem (0x40010C08, 0x0004 Bytes, ...) -- CPU is running -- CPU_ReadMem(4 bytes @ 0x40010C08) - Data: 0F 5F 00 00  returns 0x00 (0001ms, 0696ms total)
T48A0 005:413 JLINK_ReadMem (0x40010C0C, 0x0004 Bytes, ...) -- CPU is running -- CPU_ReadMem(4 bytes @ 0x40010C0C) - Data: 00 F0 00 00  returns 0x00 (0000ms, 0696ms total)
T48A0 005:413 JLINK_ReadMem (0x40010C10, 0x0004 Bytes, ...) -- CPU is running -- CPU_ReadMem(4 bytes @ 0x40010C10) - Data: 00 00 00 00  returns 0x00 (0001ms, 0697ms total)
T48A0 005:414 JLINK_ReadMem (0x40010C14, 0x0004 Bytes, ...) -- CPU is running -- CPU_ReadMem(4 bytes @ 0x40010C14) - Data: 00 00 00 00  returns 0x00 (0000ms, 0697ms total)
T48A0 005:414 JLINK_ReadMem (0x40010C18, 0x0004 Bytes, ...) -- CPU is running -- CPU_ReadMem(4 bytes @ 0x40010C18) - Data: 00 00 00 00  returns 0x00 (0001ms, 0698ms total)
T48A0 005:422 JLINK_ReadMem (0x40021018, 0x0004 Bytes, ...) -- CPU is running -- CPU_ReadMem(4 bytes @ 0x40021018) - Data: 1D 40 00 00  returns 0x00 (0001ms, 0699ms total)
T48A0 005:423 JLINK_ReadMem (0x4002100C, 0x0004 Bytes, ...) -- CPU is running -- CPU_ReadMem(4 bytes @ 0x4002100C) - Data: 00 00 00 00  returns 0x00 (0000ms, 0699ms total)
T48A0 005:424 JLINK_ReadMem (0x40011000, 0x0004 Bytes, ...) -- CPU is running -- CPU_ReadMem(4 bytes @ 0x40011000) - Data: 84 44 44 43  returns 0x00 (0000ms, 0699ms total)
T48A0 005:424 JLINK_ReadMem (0x40011004, 0x0004 Bytes, ...) -- CPU is running -- CPU_ReadMem(4 bytes @ 0x40011004) - Data: 44 44 44 44  returns 0x00 (0001ms, 0700ms total)
T48A0 005:425 JLINK_ReadMem (0x40011008, 0x0004 Bytes, ...) -- CPU is running -- CPU_ReadMem(4 bytes @ 0x40011008) - Data: FD FF 00 00  returns 0x00 (0000ms, 0700ms total)
T48A0 005:425 JLINK_ReadMem (0x4001100C, 0x0004 Bytes, ...) -- CPU is running -- CPU_ReadMem(4 bytes @ 0x4001100C) - Data: 42 00 00 00  returns 0x00 (0000ms, 0700ms total)
T48A0 005:425 JLINK_ReadMem (0x40011010, 0x0004 Bytes, ...) -- CPU is running -- CPU_ReadMem(4 bytes @ 0x40011010) - Data: 00 00 00 00  returns 0x00 (0001ms, 0701ms total)
T48A0 005:426 JLINK_ReadMem (0x40011014, 0x0004 Bytes, ...) -- CPU is running -- CPU_ReadMem(4 bytes @ 0x40011014) - Data: 00 00 00 00  returns 0x00 (0001ms, 0702ms total)
T48A0 005:427 JLINK_ReadMem (0x40011018, 0x0004 Bytes, ...) -- CPU is running -- CPU_ReadMem(4 bytes @ 0x40011018) - Data: 00 00 00 00  returns 0x00 (0000ms, 0702ms total)
T48A0 005:429 JLINK_ReadMem (0x40021018, 0x0004 Bytes, ...) -- CPU is running -- CPU_ReadMem(4 bytes @ 0x40021018) - Data: 1D 40 00 00  returns 0x00 (0001ms, 0703ms total)
T48A0 005:430 JLINK_ReadMem (0x4002100C, 0x0004 Bytes, ...) -- CPU is running -- CPU_ReadMem(4 bytes @ 0x4002100C) - Data: 00 00 00 00  returns 0x00 (0000ms, 0703ms total)
T48A0 005:430 JLINK_ReadMem (0x40021000, 0x0004 Bytes, ...) -- CPU is running -- CPU_ReadMem(4 bytes @ 0x40021000) - Data: 83 51 03 03  returns 0x00 (0001ms, 0704ms total)
T48A0 005:431 JLINK_ReadMem (0x40021004, 0x0004 Bytes, ...) -- CPU is running -- CPU_ReadMem(4 bytes @ 0x40021004) - Data: 0A 04 1D 00  returns 0x00 (0001ms, 0705ms total)
T48A0 005:432 JLINK_ReadMem (0x40021020, 0x0004 Bytes, ...) -- CPU is running -- CPU_ReadMem(4 bytes @ 0x40021020) - Data: 00 00 00 00  returns 0x00 (0000ms, 0705ms total)
T48A0 005:432 JLINK_ReadMem (0x40013800, 0x0004 Bytes, ...) -- CPU is running -- CPU_ReadMem(4 bytes @ 0x40013800) - Data: C0 00 00 00  returns 0x00 (0001ms, 0706ms total)
T48A0 005:433 JLINK_ReadMem (0x40013804, 0x0004 Bytes, ...) -- CPU is running -- CPU_ReadMem(4 bytes @ 0x40013804) - Data: 00 00 00 00  returns 0x00 (0000ms, 0706ms total)
T48A0 005:433 JLINK_ReadMem (0x40013808, 0x0004 Bytes, ...) -- CPU is running -- CPU_ReadMem(4 bytes @ 0x40013808) - Data: 4C 1D 00 00  returns 0x00 (0001ms, 0707ms total)
T48A0 005:434 JLINK_ReadMem (0x4001380C, 0x0004 Bytes, ...) -- CPU is running -- CPU_ReadMem(4 bytes @ 0x4001380C) - Data: 2C 20 00 00  returns 0x00 (0001ms, 0708ms total)
T48A0 005:435 JLINK_ReadMem (0x40013810, 0x0004 Bytes, ...) -- CPU is running -- CPU_ReadMem(4 bytes @ 0x40013810) - Data: 00 00 00 00  returns 0x00 (0000ms, 0708ms total)
T48A0 005:435 JLINK_ReadMem (0x40013814, 0x0004 Bytes, ...) -- CPU is running -- CPU_ReadMem(4 bytes @ 0x40013814) - Data: 00 00 00 00  returns 0x00 (0001ms, 0709ms total)
T48A0 005:436 JLINK_ReadMem (0x40013818, 0x0004 Bytes, ...) -- CPU is running -- CPU_ReadMem(4 bytes @ 0x40013818) - Data: 00 00 00 00  returns 0x00 (0000ms, 0709ms total)
T48A0 005:436 JLINK_ReadMem (0x40021000, 0x0004 Bytes, ...) -- CPU is running -- CPU_ReadMem(4 bytes @ 0x40021000) - Data: 83 51 03 03  returns 0x00 (0001ms, 0710ms total)
T48A0 005:437 JLINK_ReadMem (0x40021004, 0x0004 Bytes, ...) -- CPU is running -- CPU_ReadMem(4 bytes @ 0x40021004) - Data: 0A 04 1D 00  returns 0x00 (0000ms, 0710ms total)
T48A0 005:437 JLINK_ReadMem (0x40021020, 0x0004 Bytes, ...) -- CPU is running -- CPU_ReadMem(4 bytes @ 0x40021020) - Data: 00 00 00 00  returns 0x00 (0001ms, 0711ms total)
T48A0 005:439 JLINK_ReadMem (0x40021018, 0x0004 Bytes, ...) -- CPU is running -- CPU_ReadMem(4 bytes @ 0x40021018) - Data: 1D 40 00 00  returns 0x00 (0001ms, 0712ms total)
T48A0 005:440 JLINK_ReadMem (0x4002100C, 0x0004 Bytes, ...) -- CPU is running -- CPU_ReadMem(4 bytes @ 0x4002100C) - Data: 00 00 00 00  returns 0x00 (0000ms, 0712ms total)
T48A0 005:440 JLINK_ReadMem (0x40013800, 0x0018 Bytes, ...) -- CPU is running -- CPU_ReadMem(24 bytes @ 0x40013800) - Data: C0 00 00 00 00 00 00 00 4C 1D 00 00 2C 20 00 00 ...  returns 0x00 (0001ms, 0713ms total)
T48A0 005:441 JLINK_ReadMem (0x40013818, 0x0004 Bytes, ...) -- CPU is running -- CPU_ReadMem(4 bytes @ 0x40013818) - Data: 00 00 00 00  returns 0x00 (0001ms, 0714ms total)
T48A0 005:450 JLINK_ReadMem (0x40004800, 0x0018 Bytes, ...) -- CPU is running -- CPU_ReadMem(24 bytes @ 0x40004800) - Data: C0 00 00 00 00 00 00 00 A6 0E 00 00 3C 20 00 00 ...  returns 0x00 (0001ms, 0715ms total)
T48A0 005:451 JLINK_ReadMem (0x40004818, 0x0004 Bytes, ...) -- CPU is running -- CPU_ReadMem(4 bytes @ 0x40004818) - Data: 00 00 00 00  returns 0x00 (0001ms, 0716ms total)
T2F50 005:452 JLINK_IsHalted()  returns FALSE (0001ms, 0717ms total)
T2F50 005:553 JLINK_IsHalted()  returns FALSE (0001ms, 0717ms total)
T2F50 005:654 JLINK_IsHalted()  returns FALSE (0001ms, 0717ms total)
T2F50 005:755 JLINK_IsHalted()  returns FALSE (0001ms, 0717ms total)
T2F50 005:856 JLINK_IsHalted()  returns FALSE (0001ms, 0717ms total)
T2F50 005:957 JLINK_ReadMemU32(0xE0001004, 0x0001 Items, ...) -- CPU is running -- CPU_ReadMem(4 bytes @ 0xE0001004) - Data: 25 01 9C 04  returns 0x01 (0001ms, 0717ms total)
T48A0 005:961 JLINK_ReadMem (0x2000005D, 0x0001 Bytes, ...) -- CPU is running -- CPU_ReadMem(1 bytes @ 0x2000005D) - Data: 00  returns 0x00 (0001ms, 0718ms total)
T48A0 005:962 JLINK_ReadMem (0x2000003C, 0x0002 Bytes, ...) -- CPU is running -- CPU_ReadMem(2 bytes @ 0x2000003C) - Data: 00 00  returns 0x00 (0001ms, 0719ms total)
T48A0 005:963 JLINK_ReadMem (0x2000009C, 0x0001 Bytes, ...) -- CPU is running -- CPU_ReadMem(1 bytes @ 0x2000009C) - Data: 00  returns 0x00 (0000ms, 0719ms total)
T48A0 005:964 JLINK_ReadMem (0x2000009C, 0x0020 Bytes, ...) -- CPU is running -- CPU_ReadMem(32 bytes @ 0x2000009C) - Data: 00 00 00 00 00 00 00 00 00 00 00 00 00 00 00 00 ...  returns 0x00 (0001ms, 0720ms total)
T48A0 005:965 JLINK_ReadMem (0x2000005C, 0x0001 Bytes, ...) -- CPU is running -- CPU_ReadMem(1 bytes @ 0x2000005C) - Data: 00  returns 0x00 (0000ms, 0720ms total)
T48A0 005:966 JLINK_ReadMem (0x20000054, 0x0008 Bytes, ...) -- CPU is running -- CPU_ReadMem(8 bytes @ 0x20000054) - Data: 00 00 00 00 00 00 00 00  returns 0x00 (0000ms, 0720ms total)
T48A0 005:966 JLINK_ReadMem (0x20000024, 0x0004 Bytes, ...) -- CPU is running -- CPU_ReadMem(4 bytes @ 0x20000024) - Data: 00 00 00 00  returns 0x00 (0001ms, 0721ms total)
T48A0 005:967 JLINK_ReadMem (0x40010C10, 0x0004 Bytes, ...) -- CPU is running -- CPU_ReadMem(4 bytes @ 0x40010C10) - Data: 00 00 00 00  returns 0x00 (0001ms, 0722ms total)
T48A0 005:968 JLINK_ReadMem (0x2000009C, 0x0020 Bytes, ...) -- CPU is running -- CPU_ReadMem(32 bytes @ 0x2000009C) - Data: 00 00 00 00 00 00 00 00 00 00 00 00 00 00 00 00 ...  returns 0x00 (0000ms, 0722ms total)
T48A0 005:968 JLINK_ReadMem (0x20000070, 0x000A Bytes, ...) -- CPU is running -- CPU_ReadMem(10 bytes @ 0x20000070) - Data: 00 00 00 00 00 00 00 00 00 00  returns 0x00 (0001ms, 0723ms total)
T48A0 005:969 JLINK_ReadMem (0x2000007A, 0x000A Bytes, ...) -- CPU is running -- CPU_ReadMem(10 bytes @ 0x2000007A) - Data: 00 00 00 00 00 00 00 00 00 00  returns 0x00 (0001ms, 0724ms total)
T48A0 005:970 JLINK_ReadMem (0x20000004, 0x0004 Bytes, ...) -- CPU is running -- CPU_ReadMem(4 bytes @ 0x20000004) - Data: 00 00 00 00  returns 0x00 (0001ms, 0725ms total)
T48A0 005:971 JLINK_ReadMem (0x2000002C, 0x0004 Bytes, ...) -- CPU is running -- CPU_ReadMem(4 bytes @ 0x2000002C) - Data: 42 00 00 00  returns 0x00 (0001ms, 0726ms total)
T48A0 005:972 JLINK_ReadMem (0x20000030, 0x0002 Bytes, ...) -- CPU is running -- CPU_ReadMem(2 bytes @ 0x20000030) - Data: 01 00  returns 0x00 (0000ms, 0726ms total)
T48A0 005:972 JLINK_ReadMem (0x40010800, 0x0004 Bytes, ...) -- CPU is running -- CPU_ReadMem(4 bytes @ 0x40010800) - Data: 44 44 33 33  returns 0x00 (0001ms, 0727ms total)
T48A0 005:973 JLINK_ReadMem (0x40010804, 0x0004 Bytes, ...) -- CPU is running -- CPU_ReadMem(4 bytes @ 0x40010804) - Data: B4 44 84 88  returns 0x00 (0001ms, 0728ms total)
T48A0 005:974 JLINK_ReadMem (0x40010808, 0x0004 Bytes, ...) -- CPU is running -- CPU_ReadMem(4 bytes @ 0x40010808) - Data: 0F 9F 00 00  returns 0x00 (0000ms, 0728ms total)
T48A0 005:974 JLINK_ReadMem (0x4001080C, 0x0004 Bytes, ...) -- CPU is running -- CPU_ReadMem(4 bytes @ 0x4001080C) - Data: 00 A0 00 00  returns 0x00 (0001ms, 0729ms total)
T48A0 005:975 JLINK_ReadMem (0x40010810, 0x0004 Bytes, ...) -- CPU is running -- CPU_ReadMem(4 bytes @ 0x40010810) - Data: 00 00 00 00  returns 0x00 (0000ms, 0729ms total)
T48A0 005:975 JLINK_ReadMem (0x40010814, 0x0004 Bytes, ...) -- CPU is running -- CPU_ReadMem(4 bytes @ 0x40010814) - Data: 00 00 00 00  returns 0x00 (0001ms, 0730ms total)
T48A0 005:976 JLINK_ReadMem (0x40010818, 0x0004 Bytes, ...) -- CPU is running -- CPU_ReadMem(4 bytes @ 0x40010818) - Data: 00 00 00 00  returns 0x00 (0000ms, 0730ms total)
T48A0 005:976 JLINK_ReadMem (0x40021018, 0x0004 Bytes, ...) -- CPU is running -- CPU_ReadMem(4 bytes @ 0x40021018) - Data: 1D 40 00 00  returns 0x00 (0001ms, 0731ms total)
T48A0 005:977 JLINK_ReadMem (0x4002100C, 0x0004 Bytes, ...) -- CPU is running -- CPU_ReadMem(4 bytes @ 0x4002100C) - Data: 00 00 00 00  returns 0x00 (0000ms, 0731ms total)
T48A0 005:977 JLINK_ReadMem (0x40010C00, 0x0004 Bytes, ...) -- CPU is running -- CPU_ReadMem(4 bytes @ 0x40010C00) - Data: 44 44 33 33  returns 0x00 (0001ms, 0732ms total)
T48A0 005:978 JLINK_ReadMem (0x40010C04, 0x0004 Bytes, ...) -- CPU is running -- CPU_ReadMem(4 bytes @ 0x40010C04) - Data: 44 4B B3 BB  returns 0x00 (0001ms, 0733ms total)
T48A0 005:979 JLINK_ReadMem (0x40010C08, 0x0004 Bytes, ...) -- CPU is running -- CPU_ReadMem(4 bytes @ 0x40010C08) - Data: 0F 5F 00 00  returns 0x00 (0000ms, 0733ms total)
T48A0 005:979 JLINK_ReadMem (0x40010C0C, 0x0004 Bytes, ...) -- CPU is running -- CPU_ReadMem(4 bytes @ 0x40010C0C) - Data: 00 F0 00 00  returns 0x00 (0001ms, 0734ms total)
T48A0 005:980 JLINK_ReadMem (0x40010C10, 0x0004 Bytes, ...) -- CPU is running -- CPU_ReadMem(4 bytes @ 0x40010C10) - Data: 00 00 00 00  returns 0x00 (0000ms, 0734ms total)
T48A0 005:980 JLINK_ReadMem (0x40010C14, 0x0004 Bytes, ...) -- CPU is running -- CPU_ReadMem(4 bytes @ 0x40010C14) - Data: 00 00 00 00  returns 0x00 (0001ms, 0735ms total)
T48A0 005:981 JLINK_ReadMem (0x40010C18, 0x0004 Bytes, ...) -- CPU is running -- CPU_ReadMem(4 bytes @ 0x40010C18) - Data: 00 00 00 00  returns 0x00 (0000ms, 0735ms total)
T48A0 005:981 JLINK_ReadMem (0x40021018, 0x0004 Bytes, ...) -- CPU is running -- CPU_ReadMem(4 bytes @ 0x40021018) - Data: 1D 40 00 00  returns 0x00 (0001ms, 0736ms total)
T48A0 005:982 JLINK_ReadMem (0x4002100C, 0x0004 Bytes, ...) -- CPU is running -- CPU_ReadMem(4 bytes @ 0x4002100C) - Data: 00 00 00 00  returns 0x00 (0000ms, 0736ms total)
T48A0 005:983 JLINK_ReadMem (0x40011000, 0x0004 Bytes, ...) -- CPU is running -- CPU_ReadMem(4 bytes @ 0x40011000) - Data: 84 44 44 43  returns 0x00 (0000ms, 0736ms total)
T48A0 005:983 JLINK_ReadMem (0x40011004, 0x0004 Bytes, ...) -- CPU is running -- CPU_ReadMem(4 bytes @ 0x40011004) - Data: 44 44 44 44  returns 0x00 (0001ms, 0737ms total)
T48A0 005:984 JLINK_ReadMem (0x40011008, 0x0004 Bytes, ...) -- CPU is running -- CPU_ReadMem(4 bytes @ 0x40011008) - Data: FD FF 00 00  returns 0x00 (0001ms, 0738ms total)
T48A0 005:985 JLINK_ReadMem (0x4001100C, 0x0004 Bytes, ...) -- CPU is running -- CPU_ReadMem(4 bytes @ 0x4001100C) - Data: 42 00 00 00  returns 0x00 (0000ms, 0738ms total)
T48A0 005:985 JLINK_ReadMem (0x40011010, 0x0004 Bytes, ...) -- CPU is running -- CPU_ReadMem(4 bytes @ 0x40011010) - Data: 00 00 00 00  returns 0x00 (0001ms, 0739ms total)
T48A0 005:986 JLINK_ReadMem (0x40011014, 0x0004 Bytes, ...) -- CPU is running -- CPU_ReadMem(4 bytes @ 0x40011014) - Data: 00 00 00 00  returns 0x00 (0000ms, 0739ms total)
T48A0 005:986 JLINK_ReadMem (0x40011018, 0x0004 Bytes, ...) -- CPU is running -- CPU_ReadMem(4 bytes @ 0x40011018) - Data: 00 00 00 00  returns 0x00 (0001ms, 0740ms total)
